                   * c:\esimworkspace\inverter1\inverter1.cir
                   Transient Analysis  Sun Oct 18 16:05:53  2020
--------------------------------------------------------------------------------
Index   time            v1#branch       v2#branch       
--------------------------------------------------------------------------------
0	0.000000e+00	0.000000e+00	-1.11777e-11	
1	1.000000e-03	-4.46072e-15	-1.11732e-11	
2	2.000000e-03	-1.92303e-18	-1.11778e-11	
3	4.000000e-03	1.958128e-18	-1.11777e-11	
4	8.000000e-03	-1.96335e-18	-1.11777e-11	
5	1.600000e-02	1.965378e-18	-1.11777e-11	
6	3.200000e-02	-1.96233e-18	-1.11776e-11	
7	6.400000e-02	1.960609e-18	-1.11777e-11	
8	1.280000e-01	-1.95970e-18	-1.11777e-11	
9	2.280000e-01	1.958941e-18	-1.11777e-11	
10	3.280000e-01	-1.95884e-18	-1.11777e-11	
11	4.280000e-01	1.959224e-18	-1.11777e-11	
12	5.280000e-01	-1.95925e-18	-1.11777e-11	
13	6.280000e-01	1.959081e-18	-1.11777e-11	
14	7.280000e-01	-1.95898e-18	-1.11777e-11	
15	8.280000e-01	1.958972e-18	-1.11777e-11	
16	9.280000e-01	-1.95911e-18	-1.11777e-11	
17	1.028000e+00	1.959205e-18	-1.11777e-11	
18	1.128000e+00	-1.95920e-18	-1.11777e-11	
19	1.228000e+00	1.959024e-18	-1.11777e-11	
20	1.328000e+00	-1.95900e-18	-1.11777e-11	
21	1.428000e+00	1.958784e-18	-1.11777e-11	
22	1.528000e+00	-1.95836e-18	-1.11777e-11	
23	1.628000e+00	1.958337e-18	-1.11777e-11	
24	1.728000e+00	-1.95849e-18	-1.11777e-11	
25	1.800000e+00	1.958814e-18	-1.11777e-11	
26	1.810000e+00	-1.63231e-10	1.118380e-10	
27	1.830000e+00	-1.62334e-10	9.373174e-11	
28	1.870000e+00	-1.61649e-10	-2.96150e-11	
29	1.950000e+00	-1.60227e-10	-3.39425e-09	
30	2.050000e+00	-1.79182e-10	-1.31187e-07	
31	2.150000e+00	-2.80693e-10	-2.16324e-06	
32	2.250000e+00	-3.26817e-10	-9.27159e-06	
33	2.350000e+00	-2.57524e-10	-8.48447e-06	
34	2.450000e+00	-2.29383e-10	-4.87057e-06	
35	2.550000e+00	-2.39344e-10	-2.18295e-06	
36	2.650000e+00	-2.19825e-10	-5.33281e-07	
37	2.750000e+00	-2.01828e-10	-3.61472e-08	
38	2.850000e+00	-1.29047e-10	-1.02198e-09	
39	2.950000e+00	-1.89727e-10	2.149281e-12	
40	3.000000e+00	-1.32054e-10	3.699671e-11	
41	3.010000e+00	1.307477e-13	-4.83236e-12	
42	3.030000e+00	5.661483e-16	-4.88629e-12	
43	3.070000e+00	-5.63011e-16	-4.88629e-12	
44	3.150000e+00	5.630078e-16	-4.88631e-12	
45	3.250000e+00	-5.63006e-16	-4.88631e-12	
46	3.350000e+00	5.630035e-16	-4.88631e-12	
47	3.450000e+00	-5.63001e-16	-4.88631e-12	
48	3.550000e+00	5.629992e-16	-4.88631e-12	
49	3.650000e+00	-5.62997e-16	-4.88631e-12	
50	3.750000e+00	5.629949e-16	-4.88631e-12	
51	3.850000e+00	-5.62993e-16	-4.88631e-12	
52	3.950000e+00	5.629906e-16	-4.88631e-12	
53	4.050000e+00	-5.62988e-16	-4.88631e-12	
54	4.150000e+00	5.629862e-16	-4.88631e-12	

Index   time            v1#branch       v2#branch       
--------------------------------------------------------------------------------
55	4.250000e+00	-5.62984e-16	-4.88631e-12	
56	4.350000e+00	5.629819e-16	-4.88631e-12	
57	4.450000e+00	-5.62980e-16	-4.88631e-12	
58	4.550000e+00	5.629776e-16	-4.88631e-12	
59	4.650000e+00	-5.62975e-16	-4.88631e-12	
60	4.750000e+00	5.629733e-16	-4.88631e-12	
61	4.850000e+00	-5.62971e-16	-4.88631e-12	
62	4.950000e+00	5.629690e-16	-4.88631e-12	
63	5.000000e+00	-5.62965e-16	-4.88631e-12	
64	5.010000e+00	-5.38853e-21	-4.88626e-12	
65	5.030000e+00	5.387533e-21	-4.88626e-12	
66	5.070000e+00	-5.39104e-21	-4.88629e-12	
67	5.150000e+00	5.392623e-21	-4.88631e-12	
68	5.250000e+00	-5.39165e-21	-4.88631e-12	
69	5.350000e+00	5.391667e-21	-4.88631e-12	
70	5.450000e+00	-5.39165e-21	-4.88631e-12	
71	5.550000e+00	5.391460e-21	-4.88631e-12	
72	5.650000e+00	-5.39165e-21	-4.88631e-12	
73	5.750000e+00	5.391460e-21	-4.88631e-12	
74	5.850000e+00	-5.39165e-21	-4.88631e-12	
75	5.950000e+00	5.391460e-21	-4.88631e-12	
76	6.050000e+00	-5.39165e-21	-4.88631e-12	
77	6.150000e+00	5.391460e-21	-4.88631e-12	
78	6.250000e+00	-5.39165e-21	-4.88631e-12	
79	6.350000e+00	5.391460e-21	-4.88631e-12	
80	6.450000e+00	-5.39165e-21	-4.88631e-12	
81	6.550000e+00	5.391460e-21	-4.88631e-12	
82	6.650000e+00	-5.39165e-21	-4.88631e-12	
83	6.750000e+00	5.391460e-21	-4.88631e-12	
84	6.850000e+00	-5.39165e-21	-4.88631e-12	
85	6.950000e+00	5.391460e-21	-4.88631e-12	
86	7.050000e+00	-5.39165e-21	-4.88631e-12	
87	7.150000e+00	5.391460e-21	-4.88631e-12	
88	7.250000e+00	-5.39165e-21	-4.88631e-12	
89	7.350000e+00	5.391460e-21	-4.88631e-12	
90	7.450000e+00	-5.39165e-21	-4.88631e-12	
91	7.550000e+00	5.391460e-21	-4.88631e-12	
92	7.650000e+00	-5.39165e-21	-4.88631e-12	
93	7.750000e+00	5.391460e-21	-4.88631e-12	
94	7.850000e+00	-5.39165e-21	-4.88631e-12	
95	7.950000e+00	5.391460e-21	-4.88631e-12	
96	8.050000e+00	-5.39165e-21	-4.88631e-12	
97	8.150000e+00	5.391460e-21	-4.88631e-12	
98	8.250000e+00	-5.39165e-21	-4.88631e-12	
99	8.350000e+00	5.391460e-21	-4.88631e-12	
100	8.450000e+00	-5.39165e-21	-4.88631e-12	
101	8.550000e+00	5.391460e-21	-4.88631e-12	
102	8.650000e+00	-5.39165e-21	-4.88631e-12	
103	8.750000e+00	5.391460e-21	-4.88631e-12	
104	8.850000e+00	-5.39165e-21	-4.88631e-12	
105	8.950000e+00	5.391460e-21	-4.88631e-12	
106	9.050000e+00	-5.39165e-21	-4.88631e-12	
107	9.150000e+00	5.391460e-21	-4.88631e-12	
108	9.250000e+00	-5.39165e-21	-4.88631e-12	
109	9.350000e+00	5.391460e-21	-4.88631e-12	
110	9.450000e+00	-5.39165e-21	-4.88631e-12	
111	9.550000e+00	5.391460e-21	-4.88631e-12	
112	9.650000e+00	-5.39165e-21	-4.88631e-12	

Index   time            v1#branch       v2#branch       
--------------------------------------------------------------------------------
113	9.750000e+00	5.391460e-21	-4.88631e-12	
114	9.850000e+00	-5.39165e-21	-4.88631e-12	
115	9.950000e+00	5.391460e-21	-4.88631e-12	
116	1.000000e+01	-5.39207e-21	-4.88631e-12	
